i_rs	I(R_rs)	I(R_vs)	I(R_vs)/I(R_rs)
Step Information: Elec=100m  (Run: 1/4)
1.000000000000000e-003	1.000000e-003	1.321599e-013	1.321599e-010
2.000000000000000e-003	2.000000e-003	2.648316e-013	1.324158e-010
3.000000000000000e-003	3.000000e-003	3.995632e-013	1.331877e-010
4.000000000000000e-003	4.000000e-003	5.348326e-013	1.337081e-010
5.000000000000000e-003	5.000000e-003	6.711385e-013	1.342277e-010
6.000000000000000e-003	6.000000e-003	8.084939e-013	1.347490e-010
7.000000000000000e-003	7.000000e-003	9.469162e-013	1.352737e-010
8.000000000000000e-003	8.000000e-003	1.086405e-012	1.358007e-010
9.000000000000001e-003	9.000000e-003	1.227005e-012	1.363339e-010
1.000000000000000e-002	1.000000e-002	1.368679e-012	1.368680e-010
1.100000000000000e-002	1.100000e-002	1.511447e-012	1.374043e-010
1.200000000000000e-002	1.200000e-002	1.655360e-012	1.379467e-010
1.300000000000001e-002	1.300000e-002	1.800313e-012	1.384856e-010
1.400000000000001e-002	1.400000e-002	1.946446e-012	1.390319e-010
1.500000000000001e-002	1.500000e-002	2.093707e-012	1.395805e-010
1.600000000000001e-002	1.600000e-002	2.242095e-012	1.401310e-010
1.700000000000001e-002	1.700000e-002	2.391629e-012	1.406840e-010
1.800000000000001e-002	1.800000e-002	2.542341e-012	1.412412e-010
1.900000000000001e-002	1.900000e-002	2.694164e-012	1.417981e-010
2.000000000000001e-002	2.000000e-002	2.847236e-012	1.423618e-010
2.100000000000001e-002	2.100000e-002	3.001453e-012	1.429263e-010
2.200000000000001e-002	2.200000e-002	3.156884e-012	1.434947e-010
2.300000000000001e-002	2.300000e-002	3.313530e-012	1.440665e-010
2.400000000000001e-002	2.400000e-002	3.471355e-012	1.446398e-010
2.500000000000002e-002	2.500000e-002	3.630464e-012	1.452186e-010
2.600000000000002e-002	2.600000e-002	3.790752e-012	1.457982e-010
2.700000000000002e-002	2.700000e-002	3.952325e-012	1.463824e-010
2.800000000000002e-002	2.800000e-002	4.115111e-012	1.469682e-010
2.900000000000002e-002	2.900000e-002	4.279146e-012	1.475568e-010
3.000000000000002e-002	3.000000e-002	4.444500e-012	1.481500e-010
3.100000000000002e-002	3.100000e-002	4.611103e-012	1.487453e-010
3.200000000000002e-002	3.200000e-002	4.779024e-012	1.493445e-010
3.300000000000002e-002	3.300000e-002	4.948264e-012	1.499474e-010
3.400000000000002e-002	3.400000e-002	5.118683e-012	1.505495e-010
3.500000000000002e-002	3.500000e-002	5.290629e-012	1.511608e-010
3.600000000000003e-002	3.600000e-002	5.463754e-012	1.517710e-010
3.700000000000003e-002	3.700000e-002	5.638268e-012	1.523856e-010
3.800000000000003e-002	3.800000e-002	5.814099e-012	1.530026e-010
3.900000000000003e-002	3.900000e-002	5.991319e-012	1.536235e-010
4.000000000000003e-002	4.000000e-002	6.169926e-012	1.542481e-010
4.100000000000003e-002	4.100000e-002	6.349990e-012	1.548778e-010
4.200000000000003e-002	4.200000e-002	6.531303e-012	1.555072e-010
4.300000000000003e-002	4.300000e-002	6.714213e-012	1.561445e-010
4.400000000000003e-002	4.400000e-002	6.898371e-012	1.567812e-010
4.500000000000003e-002	4.500000e-002	7.084056e-012	1.574235e-010
4.600000000000003e-002	4.600000e-002	7.271059e-012	1.580665e-010
4.700000000000004e-002	4.700000e-002	7.459727e-012	1.587176e-010
4.800000000000004e-002	4.800000e-002	7.649645e-012	1.593676e-010
4.900000000000004e-002	4.900000e-002	7.841089e-012	1.600222e-010
5.000000000000004e-002	5.000000e-002	8.034060e-012	1.606812e-010
5.100000000000004e-002	5.100000e-002	8.228557e-012	1.613443e-010
5.200000000000004e-002	5.200000e-002	8.424442e-012	1.620085e-010
5.300000000000004e-002	5.300000e-002	8.621923e-012	1.626778e-010
5.400000000000004e-002	5.400000e-002	8.820930e-012	1.633506e-010
5.500000000000004e-002	5.500000e-002	9.021534e-012	1.640279e-010
5.600000000000004e-002	5.600000e-002	9.223525e-012	1.647058e-010
5.700000000000004e-002	5.700000e-002	9.427320e-012	1.653916e-010
5.800000000000005e-002	5.800000e-002	9.632434e-012	1.660764e-010
5.900000000000005e-002	5.900000e-002	9.839352e-012	1.667687e-010
6.000000000000005e-002	6.000000e-002	1.004787e-011	1.674644e-010
6.100000000000005e-002	6.100000e-002	1.025784e-011	1.681612e-010
6.200000000000005e-002	6.200000e-002	1.046961e-011	1.688647e-010
6.300000000000004e-002	6.300000e-002	1.068284e-011	1.695689e-010
6.400000000000004e-002	6.400000e-002	1.089781e-011	1.702783e-010
6.500000000000004e-002	6.500000e-002	1.111444e-011	1.709914e-010
6.600000000000005e-002	6.600000e-002	1.133288e-011	1.717103e-010
6.700000000000005e-002	6.700000e-002	1.155298e-011	1.724325e-010
6.800000000000005e-002	6.800000e-002	1.177475e-011	1.731580e-010
6.900000000000005e-002	6.900000e-002	1.199804e-011	1.738847e-010
7.000000000000005e-002	7.000000e-002	1.222342e-011	1.746202e-010
7.100000000000005e-002	7.100000e-002	1.245004e-011	1.753527e-010
7.200000000000005e-002	7.200000e-002	1.267902e-011	1.760976e-010
7.300000000000005e-002	7.300000e-002	1.290940e-011	1.768410e-010
7.400000000000005e-002	7.400000e-002	1.314157e-011	1.775888e-010
7.500000000000005e-002	7.500000e-002	1.337569e-011	1.783425e-010
7.600000000000005e-002	7.600000e-002	1.361161e-011	1.791002e-010
7.700000000000006e-002	7.700000e-002	1.384934e-011	1.798615e-010
7.800000000000006e-002	7.800000e-002	1.408873e-011	1.806247e-010
7.900000000000006e-002	7.900000e-002	1.433020e-011	1.813950e-010
8.000000000000006e-002	8.000000e-002	1.457348e-011	1.821685e-010
8.100000000000006e-002	8.100000e-002	1.481870e-011	1.829469e-010
8.200000000000006e-002	8.200000e-002	1.506573e-011	1.837284e-010
8.300000000000006e-002	8.300000e-002	1.531483e-011	1.845161e-010
8.400000000000006e-002	8.400000e-002	1.556560e-011	1.853048e-010
8.500000000000006e-002	8.500000e-002	1.581860e-011	1.861011e-010
8.600000000000006e-002	8.600000e-002	1.607339e-011	1.868999e-010
8.700000000000006e-002	8.700000e-002	1.632999e-011	1.877011e-010
8.800000000000006e-002	8.800000e-002	1.658895e-011	1.885108e-010
8.900000000000007e-002	8.900000e-002	1.684958e-011	1.893211e-010
9.000000000000007e-002	9.000000e-002	1.711242e-011	1.901380e-010
9.100000000000007e-002	9.100000e-002	1.737735e-011	1.909599e-010
9.200000000000007e-002	9.200000e-002	1.764422e-011	1.917850e-010
9.300000000000007e-002	9.300000e-002	1.791303e-011	1.926132e-010
9.400000000000007e-002	9.400000e-002	1.818434e-011	1.934505e-010
9.500000000000007e-002	9.500000e-002	1.845760e-011	1.942905e-010
9.600000000000007e-002	9.600000e-002	1.873279e-011	1.951333e-010
9.700000000000007e-002	9.700000e-002	1.901007e-011	1.959801e-010
9.800000000000007e-002	9.800000e-002	1.928985e-011	1.968352e-010
9.900000000000007e-002	9.900000e-002	1.957157e-011	1.976926e-010
1.000000000000001e-001	1.000000e-001	1.985551e-011	1.985551e-010
1.010000000000001e-001	1.010000e-001	2.014153e-011	1.994211e-010
1.020000000000001e-001	1.020000e-001	2.042991e-011	2.002932e-010
1.030000000000001e-001	1.030000e-001	2.072037e-011	2.011686e-010
1.040000000000001e-001	1.040000e-001	2.101347e-011	2.020526e-010
1.050000000000001e-001	1.050000e-001	2.130851e-011	2.029382e-010
1.060000000000001e-001	1.060000e-001	2.160591e-011	2.038294e-010
1.070000000000001e-001	1.070000e-001	2.190553e-011	2.047246e-010
1.080000000000001e-001	1.080000e-001	2.220765e-011	2.056264e-010
1.090000000000001e-001	1.090000e-001	2.251199e-011	2.065320e-010
1.100000000000001e-001	1.100000e-001	2.281883e-011	2.074439e-010
1.110000000000001e-001	1.110000e-001	2.312761e-011	2.083569e-010
1.120000000000001e-001	1.120000e-001	2.343944e-011	2.092808e-010
1.130000000000001e-001	1.130000e-001	2.375308e-011	2.102043e-010
1.140000000000001e-001	1.140000e-001	2.406964e-011	2.111372e-010
1.150000000000001e-001	1.150000e-001	2.438855e-011	2.120743e-010
1.160000000000001e-001	1.160000e-001	2.470996e-011	2.130169e-010
1.170000000000001e-001	1.170000e-001	2.503359e-011	2.139623e-010
1.180000000000001e-001	1.180000e-001	2.535999e-011	2.149152e-010
1.190000000000001e-001	1.190000e-001	2.568876e-011	2.158719e-010
1.200000000000001e-001	1.200000e-001	2.602002e-011	2.168335e-010
1.210000000000001e-001	1.210000e-001	2.635420e-011	2.178033e-010
1.220000000000001e-001	1.220000e-001	2.669059e-011	2.187754e-010
1.230000000000001e-001	1.230000e-001	2.702991e-011	2.197553e-010
1.240000000000001e-001	1.240000e-001	2.737144e-011	2.207374e-010
1.250000000000001e-001	1.250000e-001	2.771616e-011	2.217293e-010
1.260000000000001e-001	1.260000e-001	2.806311e-011	2.227231e-010
1.270000000000001e-001	1.270000e-001	2.841311e-011	2.237252e-010
1.280000000000001e-001	1.280000e-001	2.876560e-011	2.247312e-010
1.290000000000001e-001	1.290000e-001	2.912059e-011	2.257411e-010
1.300000000000001e-001	1.300000e-001	2.947864e-011	2.267588e-010
1.310000000000001e-001	1.310000e-001	2.983946e-011	2.277822e-010
1.320000000000001e-001	1.320000e-001	3.020278e-011	2.288090e-010
1.330000000000001e-001	1.330000e-001	3.056971e-011	2.298475e-010
1.340000000000001e-001	1.340000e-001	3.093859e-011	2.308850e-010
1.350000000000001e-001	1.350000e-001	3.131106e-011	2.319338e-010
1.360000000000001e-001	1.360000e-001	3.168577e-011	2.329836e-010
1.370000000000001e-001	1.370000e-001	3.206380e-011	2.340423e-010
1.380000000000001e-001	1.380000e-001	3.244488e-011	2.351078e-010
1.390000000000001e-001	1.390000e-001	3.282874e-011	2.361780e-010
1.400000000000001e-001	1.400000e-001	3.321510e-011	2.372507e-010
1.410000000000001e-001	1.410000e-001	3.360479e-011	2.383318e-010
1.420000000000001e-001	1.420000e-001	3.399780e-011	2.394212e-010
1.430000000000001e-001	1.430000e-001	3.439360e-011	2.405147e-010
1.440000000000001e-001	1.440000e-001	3.479245e-011	2.416142e-010
1.450000000000001e-001	1.450000e-001	3.519435e-011	2.427196e-010
1.460000000000001e-001	1.460000e-001	3.559958e-011	2.438327e-010
1.470000000000001e-001	1.470000e-001	3.600814e-011	2.449533e-010
1.480000000000001e-001	1.480000e-001	3.641948e-011	2.460776e-010
1.490000000000001e-001	1.490000e-001	3.683415e-011	2.472090e-010
1.500000000000001e-001	1.500000e-001	3.725187e-011	2.483458e-010
1.510000000000001e-001	1.510000e-001	3.767320e-011	2.494914e-010
1.520000000000001e-001	1.520000e-001	3.809758e-011	2.506420e-010
1.530000000000001e-001	1.530000e-001	3.852529e-011	2.517993e-010
1.540000000000001e-001	1.540000e-001	3.895551e-011	2.529578e-010
1.550000000000001e-001	1.550000e-001	3.939044e-011	2.541318e-010
1.560000000000001e-001	1.560000e-001	3.982814e-011	2.553086e-010
1.570000000000001e-001	1.570000e-001	4.026890e-011	2.564898e-010
1.580000000000001e-001	1.580000e-001	4.071382e-011	2.576824e-010
1.590000000000001e-001	1.590000e-001	4.116124e-011	2.588757e-010
1.600000000000001e-001	1.600000e-001	4.161282e-011	2.600802e-010
1.610000000000001e-001	1.610000e-001	4.206746e-011	2.612886e-010
1.620000000000001e-001	1.620000e-001	4.252626e-011	2.625078e-010
1.630000000000001e-001	1.630000e-001	4.298839e-011	2.637325e-010
1.640000000000001e-001	1.640000e-001	4.345385e-011	2.649625e-010
1.650000000000001e-001	1.650000e-001	4.392292e-011	2.661995e-010
1.660000000000001e-001	1.660000e-001	4.439560e-011	2.674434e-010
1.670000000000001e-001	1.670000e-001	4.487272e-011	2.686989e-010
1.680000000000001e-001	1.680000e-001	4.535261e-011	2.699560e-010
1.690000000000001e-001	1.690000e-001	4.583667e-011	2.712229e-010
1.700000000000001e-001	1.700000e-001	4.632433e-011	2.724961e-010
1.710000000000001e-001	1.710000e-001	4.681588e-011	2.737771e-010
1.720000000000001e-001	1.720000e-001	4.731132e-011	2.750658e-010
1.730000000000001e-001	1.730000e-001	4.781037e-011	2.763605e-010
1.740000000000001e-001	1.740000e-001	4.831330e-011	2.776626e-010
1.750000000000001e-001	1.750000e-001	4.882039e-011	2.789737e-010
1.760000000000001e-001	1.760000e-001	4.933109e-011	2.802903e-010
1.770000000000001e-001	1.770000e-001	4.984596e-011	2.816156e-010
1.780000000000001e-001	1.780000e-001	5.036471e-011	2.829478e-010
1.790000000000001e-001	1.790000e-001	5.088763e-011	2.842884e-010
1.800000000000001e-001	1.800000e-001	5.141415e-011	2.856342e-010
1.810000000000001e-001	1.810000e-001	5.194567e-011	2.869927e-010
1.820000000000001e-001	1.820000e-001	5.248080e-011	2.883560e-010
1.830000000000001e-001	1.830000e-001	5.301981e-011	2.897257e-010
1.840000000000001e-001	1.840000e-001	5.356354e-011	2.911062e-010
1.850000000000001e-001	1.850000e-001	5.411088e-011	2.924913e-010
1.860000000000001e-001	1.860000e-001	5.466294e-011	2.938868e-010
1.870000000000001e-001	1.870000e-001	5.521889e-011	2.952881e-010
1.880000000000001e-001	1.880000e-001	5.577955e-011	2.966997e-010
1.890000000000001e-001	1.890000e-001	5.634410e-011	2.981169e-010
1.900000000000001e-001	1.900000e-001	5.691364e-011	2.995455e-010
1.910000000000001e-001	1.910000e-001	5.748735e-011	3.009809e-010
1.920000000000001e-001	1.920000e-001	5.806550e-011	3.024245e-010
1.930000000000001e-001	1.930000e-001	5.864809e-011	3.038761e-010
1.940000000000001e-001	1.940000e-001	5.923512e-011	3.053356e-010
1.950000000000002e-001	1.950000e-001	5.982714e-011	3.068059e-010
1.960000000000002e-001	1.960000e-001	6.042306e-011	3.082809e-010
1.970000000000002e-001	1.970000e-001	6.102424e-011	3.097677e-010
1.980000000000002e-001	1.980000e-001	6.162931e-011	3.112592e-010
1.990000000000002e-001	1.990000e-001	6.223938e-011	3.127607e-010
2.000000000000002e-001	2.000000e-001	6.285500e-011	3.142750e-010
2.010000000000002e-001	2.010000e-001	6.347423e-011	3.157922e-010
2.020000000000002e-001	2.020000e-001	6.409900e-011	3.173218e-010
2.030000000000002e-001	2.030000e-001	6.472850e-011	3.188596e-010
2.040000000000002e-001	2.040000e-001	6.536244e-011	3.204041e-010
2.050000000000002e-001	2.050000e-001	6.600220e-011	3.219620e-010
2.060000000000002e-001	2.060000e-001	6.664586e-011	3.235236e-010
2.070000000000002e-001	2.070000e-001	6.729478e-011	3.250956e-010
2.080000000000002e-001	2.080000e-001	6.794981e-011	3.266818e-010
2.090000000000002e-001	2.090000e-001	6.860873e-011	3.282714e-010
2.100000000000002e-001	2.100000e-001	6.927320e-011	3.298724e-010
2.110000000000002e-001	2.110000e-001	6.994266e-011	3.314818e-010
2.120000000000002e-001	2.120000e-001	7.061740e-011	3.331010e-010
2.130000000000002e-001	2.130000e-001	7.129741e-011	3.347296e-010
2.140000000000002e-001	2.140000e-001	7.198270e-011	3.363677e-010
2.150000000000002e-001	2.150000e-001	7.267353e-011	3.380164e-010
2.160000000000002e-001	2.160000e-001	7.336964e-011	3.396743e-010
2.170000000000002e-001	2.170000e-001	7.407075e-011	3.413399e-010
2.180000000000002e-001	2.180000e-001	7.477741e-011	3.430156e-010
2.190000000000002e-001	2.190000e-001	7.548934e-011	3.447002e-010
2.200000000000002e-001	2.200000e-001	7.620737e-011	3.463972e-010
2.210000000000002e-001	2.210000e-001	7.693096e-011	3.481039e-010
2.220000000000002e-001	2.220000e-001	7.765982e-011	3.498190e-010
2.230000000000002e-001	2.230000e-001	7.839479e-011	3.515461e-010
2.240000000000002e-001	2.240000e-001	7.913503e-011	3.532814e-010
2.250000000000002e-001	2.250000e-001	7.988082e-011	3.550259e-010
2.260000000000002e-001	2.260000e-001	8.063300e-011	3.567832e-010
2.270000000000002e-001	2.270000e-001	8.139045e-011	3.585482e-010
2.280000000000002e-001	2.280000e-001	8.215428e-011	3.603258e-010
2.290000000000002e-001	2.290000e-001	8.292367e-011	3.621121e-010
2.300000000000002e-001	2.300000e-001	8.369888e-011	3.639082e-010
2.310000000000002e-001	2.310000e-001	8.448076e-011	3.657175e-010
2.320000000000002e-001	2.320000e-001	8.526846e-011	3.675365e-010
2.330000000000002e-001	2.330000e-001	8.606199e-011	3.693648e-010
2.340000000000002e-001	2.340000e-001	8.686218e-011	3.712059e-010
2.350000000000002e-001	2.350000e-001	8.766793e-011	3.730550e-010
2.360000000000002e-001	2.360000e-001	8.848033e-011	3.749167e-010
2.370000000000002e-001	2.370000e-001	8.929912e-011	3.767895e-010
2.380000000000002e-001	2.380000e-001	9.012402e-011	3.786723e-010
2.390000000000002e-001	2.390000e-001	9.095474e-011	3.805638e-010
2.400000000000002e-001	2.400000e-001	9.179324e-011	3.824718e-010
2.410000000000002e-001	2.410000e-001	9.263701e-011	3.843859e-010
2.420000000000002e-001	2.420000e-001	9.348827e-011	3.863152e-010
2.430000000000002e-001	2.430000e-001	9.434564e-011	3.882537e-010
2.440000000000002e-001	2.440000e-001	9.521023e-011	3.902059e-010
2.450000000000002e-001	2.450000e-001	9.608064e-011	3.921659e-010
2.460000000000002e-001	2.460000e-001	9.695855e-011	3.941404e-010
2.470000000000002e-001	2.470000e-001	9.784284e-011	3.961249e-010
2.480000000000002e-001	2.480000e-001	9.873380e-011	3.981202e-010
2.490000000000002e-001	2.490000e-001	9.963225e-011	4.001295e-010
2.500000000000002e-001	2.500000e-001	1.005374e-010	4.021494e-010
2.510000000000002e-001	2.510000e-001	1.014494e-010	4.041809e-010
2.520000000000002e-001	2.520000e-001	1.023687e-010	4.062249e-010
2.530000000000002e-001	2.530000e-001	1.032952e-010	4.082812e-010
2.540000000000002e-001	2.540000e-001	1.042294e-010	4.103520e-010
2.550000000000002e-001	2.550000e-001	1.051698e-010	4.124304e-010
2.560000000000002e-001	2.560000e-001	1.061173e-010	4.145208e-010
2.570000000000002e-001	2.570000e-001	1.070727e-010	4.166252e-010
2.580000000000002e-001	2.580000e-001	1.080364e-010	4.187456e-010
2.590000000000002e-001	2.590000e-001	1.090067e-010	4.208753e-010
2.600000000000002e-001	2.600000e-001	1.099848e-010	4.230185e-010
2.610000000000002e-001	2.610000e-001	1.109701e-010	4.251729e-010
2.620000000000002e-001	2.620000e-001	1.119632e-010	4.273405e-010
2.630000000000002e-001	2.630000e-001	1.129641e-010	4.295212e-010
2.640000000000002e-001	2.640000e-001	1.139727e-010	4.317149e-010
2.650000000000002e-001	2.650000e-001	1.149891e-010	4.339213e-010
2.660000000000002e-001	2.660000e-001	1.160139e-010	4.361423e-010
2.670000000000002e-001	2.670000e-001	1.170453e-010	4.383718e-010
2.680000000000002e-001	2.680000e-001	1.180861e-010	4.406198e-010
2.690000000000002e-001	2.690000e-001	1.191353e-010	4.428820e-010
2.700000000000002e-001	2.700000e-001	1.201911e-010	4.451521e-010
2.710000000000002e-001	2.710000e-001	1.212558e-010	4.474383e-010
2.720000000000002e-001	2.720000e-001	1.223294e-010	4.497404e-010
2.730000000000002e-001	2.730000e-001	1.234096e-010	4.520499e-010
2.740000000000002e-001	2.740000e-001	1.244993e-010	4.543770e-010
2.750000000000002e-001	2.750000e-001	1.255979e-010	4.567195e-010
2.760000000000002e-001	2.760000e-001	1.267042e-010	4.590732e-010
2.770000000000002e-001	2.770000e-001	1.278194e-010	4.614419e-010
2.780000000000002e-001	2.780000e-001	1.289441e-010	4.638276e-010
2.790000000000002e-001	2.790000e-001	1.300760e-010	4.662220e-010
2.800000000000002e-001	2.800000e-001	1.312178e-010	4.686350e-010
2.810000000000002e-001	2.810000e-001	1.323675e-010	4.710586e-010
2.820000000000002e-001	2.820000e-001	1.335282e-010	4.735042e-010
2.830000000000002e-001	2.830000e-001	1.346950e-010	4.759542e-010
2.840000000000002e-001	2.840000e-001	1.358730e-010	4.784260e-010
2.850000000000002e-001	2.850000e-001	1.370593e-010	4.809097e-010
2.860000000000002e-001	2.860000e-001	1.382550e-010	4.834089e-010
2.870000000000002e-001	2.870000e-001	1.394596e-010	4.859218e-010
2.880000000000002e-001	2.880000e-001	1.406741e-010	4.884519e-010
2.890000000000002e-001	2.890000e-001	1.418982e-010	4.909971e-010
2.900000000000002e-001	2.900000e-001	1.431311e-010	4.935554e-010
2.910000000000002e-001	2.910000e-001	1.443740e-010	4.961304e-010
2.920000000000002e-001	2.920000e-001	1.456263e-010	4.987202e-010
2.930000000000002e-001	2.930000e-001	1.468886e-010	5.013263e-010
2.940000000000002e-001	2.940000e-001	1.481604e-010	5.039468e-010
2.950000000000002e-001	2.950000e-001	1.494421e-010	5.065835e-010
2.960000000000002e-001	2.960000e-001	1.507333e-010	5.092342e-010
2.970000000000002e-001	2.970000e-001	1.520356e-010	5.119044e-010
2.980000000000002e-001	2.980000e-001	1.533479e-010	5.145902e-010
2.990000000000002e-001	2.990000e-001	1.546691e-010	5.172878e-010
3.000000000000002e-001	3.000000e-001	1.560013e-010	5.200044e-010
3.010000000000002e-001	3.010000e-001	1.573447e-010	5.227398e-010
