i_vs	I(R_rs)	I(R_vs)	I(R_vs)/I(R_rs)
Step Information: I_rs=1m Elec=100m Rho=100m  (Run: 1/81)
1.000000000000000e-003	1.000000e-003	1.000000e-003	1.000000e+000
1.584893192461114e-003	1.000000e-003	1.584893e-003	1.584893e+000
2.511886431509581e-003	1.000000e-003	2.511886e-003	2.511886e+000
3.981071705534973e-003	1.000000e-003	3.981072e-003	3.981071e+000
6.309573444801935e-003	1.000000e-003	6.309574e-003	6.309573e+000
1.000000000000000e-002	1.000000e-003	1.000000e-002	9.999999e+000
1.584893192461114e-002	1.000000e-003	1.584893e-002	1.584893e+001
2.511886431509581e-002	1.000000e-003	2.511887e-002	2.511886e+001
3.981071705534975e-002	1.000000e-003	3.981072e-002	3.981072e+001
6.309573444801937e-002	1.000000e-003	6.309573e-002	6.309573e+001
1.000000000000001e-001	1.000000e-003	1.000000e-001	1.000000e+002
1.584893192461115e-001	1.000000e-003	1.584893e-001	1.584893e+002
2.511886431509583e-001	1.000000e-003	2.511886e-001	2.511886e+002
3.981071705534977e-001	1.000000e-003	3.981072e-001	3.981072e+002
6.309573444801940e-001	1.000000e-003	6.309574e-001	6.309573e+002
1.000000000000001e+000	1.000000e-003	1.000000e+000	1.000000e+003
1.584893192461116e+000	1.000000e-003	1.584893e+000	1.584893e+003
2.511886431509584e+000	1.000000e-003	2.511886e+000	2.511886e+003
3.981071705534979e+000	1.000000e-003	3.981072e+000	3.981072e+003
6.309573444801944e+000	1.000000e-003	6.309574e+000	6.309573e+003
1.000000000000000e+001	1.000000e-003	1.000000e+001	1.000000e+004
Step Information: I_rs=3.16228m Elec=100m Rho=100m  (Run: 2/81)
1.000000000000000e-003	3.162278e-003	1.000000e-003	3.162278e-001
1.584893192461114e-003	3.162278e-003	1.584893e-003	5.011872e-001
2.511886431509581e-003	3.162278e-003	2.511886e-003	7.943282e-001
3.981071705534973e-003	3.162278e-003	3.981072e-003	1.258925e+000
6.309573444801935e-003	3.162278e-003	6.309574e-003	1.995262e+000
1.000000000000000e-002	3.162278e-003	1.000000e-002	3.162278e+000
1.584893192461114e-002	3.162278e-003	1.584893e-002	5.011873e+000
2.511886431509581e-002	3.162278e-003	2.511887e-002	7.943283e+000
3.981071705534975e-002	3.162278e-003	3.981072e-002	1.258925e+001
6.309573444801937e-002	3.162278e-003	6.309573e-002	1.995262e+001
1.000000000000001e-001	3.162278e-003	1.000000e-001	3.162278e+001
1.584893192461115e-001	3.162278e-003	1.584893e-001	5.011872e+001
2.511886431509583e-001	3.162278e-003	2.511886e-001	7.943282e+001
3.981071705534977e-001	3.162278e-003	3.981072e-001	1.258925e+002
6.309573444801940e-001	3.162278e-003	6.309574e-001	1.995262e+002
1.000000000000001e+000	3.162278e-003	1.000000e+000	3.162278e+002
1.584893192461116e+000	3.162278e-003	1.584893e+000	5.011872e+002
2.511886431509584e+000	3.162278e-003	2.511886e+000	7.943282e+002
3.981071705534979e+000	3.162278e-003	3.981072e+000	1.258925e+003
6.309573444801944e+000	3.162278e-003	6.309574e+000	1.995262e+003
1.000000000000000e+001	3.162278e-003	1.000000e+001	3.162278e+003
Step Information: I_rs=10m Elec=100m Rho=100m  (Run: 3/81)
1.000000000000000e-003	1.000000e-002	1.000000e-003	1.000000e-001
1.584893192461114e-003	1.000000e-002	1.584893e-003	1.584893e-001
2.511886431509581e-003	1.000000e-002	2.511886e-003	2.511886e-001
3.981071705534973e-003	1.000000e-002	3.981072e-003	3.981072e-001
6.309573444801935e-003	1.000000e-002	6.309574e-003	6.309574e-001
1.000000000000000e-002	1.000000e-002	1.000000e-002	1.000000e+000
1.584893192461114e-002	1.000000e-002	1.584893e-002	1.584893e+000
2.511886431509581e-002	1.000000e-002	2.511887e-002	2.511887e+000
3.981071705534975e-002	1.000000e-002	3.981072e-002	3.981072e+000
6.309573444801937e-002	1.000000e-002	6.309573e-002	6.309573e+000
1.000000000000001e-001	1.000000e-002	1.000000e-001	1.000000e+001
1.584893192461115e-001	1.000000e-002	1.584893e-001	1.584893e+001
2.511886431509583e-001	1.000000e-002	2.511886e-001	2.511886e+001
3.981071705534977e-001	1.000000e-002	3.981072e-001	3.981072e+001
6.309573444801940e-001	1.000000e-002	6.309574e-001	6.309574e+001
1.000000000000001e+000	1.000000e-002	1.000000e+000	1.000000e+002
1.584893192461116e+000	1.000000e-002	1.584893e+000	1.584893e+002
2.511886431509584e+000	1.000000e-002	2.511886e+000	2.511886e+002
3.981071705534979e+000	1.000000e-002	3.981072e+000	3.981072e+002
6.309573444801944e+000	1.000000e-002	6.309574e+000	6.309574e+002
1.000000000000000e+001	1.000000e-002	1.000000e+001	1.000000e+003
Step Information: I_rs=31.6228m Elec=100m Rho=100m  (Run: 4/81)
1.000000000000000e-003	3.162277e-002	1.000000e-003	3.162278e-002
1.584893192461114e-003	3.162277e-002	1.584893e-003	5.011873e-002
2.511886431509581e-003	3.162277e-002	2.511886e-003	7.943283e-002
3.981071705534973e-003	3.162277e-002	3.981072e-003	1.258925e-001
6.309573444801935e-003	3.162277e-002	6.309574e-003	1.995262e-001
1.000000000000000e-002	3.162277e-002	1.000000e-002	3.162278e-001
1.584893192461114e-002	3.162277e-002	1.584893e-002	5.011873e-001
2.511886431509581e-002	3.162277e-002	2.511887e-002	7.943283e-001
3.981071705534975e-002	3.162277e-002	3.981072e-002	1.258925e+000
6.309573444801937e-002	3.162277e-002	6.309573e-002	1.995262e+000
1.000000000000001e-001	3.162277e-002	1.000000e-001	3.162278e+000
1.584893192461115e-001	3.162277e-002	1.584893e-001	5.011873e+000
2.511886431509583e-001	3.162277e-002	2.511886e-001	7.943283e+000
3.981071705534977e-001	3.162277e-002	3.981072e-001	1.258925e+001
6.309573444801940e-001	3.162277e-002	6.309574e-001	1.995262e+001
1.000000000000001e+000	3.162277e-002	1.000000e+000	3.162278e+001
1.584893192461116e+000	3.162277e-002	1.584893e+000	5.011873e+001
2.511886431509584e+000	3.162277e-002	2.511886e+000	7.943283e+001
3.981071705534979e+000	3.162277e-002	3.981072e+000	1.258925e+002
6.309573444801944e+000	3.162277e-002	6.309574e+000	1.995262e+002
1.000000000000000e+001	3.162277e-002	1.000000e+001	3.162278e+002
Step Information: I_rs=100m Elec=100m Rho=100m  (Run: 5/81)
1.000000000000000e-003	1.000000e-001	1.000000e-003	1.000000e-002
1.584893192461114e-003	1.000000e-001	1.584893e-003	1.584893e-002
2.511886431509581e-003	1.000000e-001	2.511886e-003	2.511886e-002
3.981071705534973e-003	1.000000e-001	3.981072e-003	3.981071e-002
6.309573444801935e-003	1.000000e-001	6.309574e-003	6.309573e-002
1.000000000000000e-002	1.000000e-001	1.000000e-002	1.000000e-001
1.584893192461114e-002	1.000000e-001	1.584893e-002	1.584893e-001
2.511886431509581e-002	1.000000e-001	2.511887e-002	2.511886e-001
3.981071705534975e-002	1.000000e-001	3.981072e-002	3.981072e-001
6.309573444801937e-002	1.000000e-001	6.309573e-002	6.309573e-001
1.000000000000001e-001	1.000000e-001	1.000000e-001	1.000000e+000
1.584893192461115e-001	1.000000e-001	1.584893e-001	1.584893e+000
2.511886431509583e-001	1.000000e-001	2.511886e-001	2.511886e+000
3.981071705534977e-001	1.000000e-001	3.981072e-001	3.981072e+000
6.309573444801940e-001	1.000000e-001	6.309574e-001	6.309574e+000
1.000000000000001e+000	1.000000e-001	1.000000e+000	1.000000e+001
1.584893192461116e+000	1.000000e-001	1.584893e+000	1.584893e+001
2.511886431509584e+000	1.000000e-001	2.511886e+000	2.511886e+001
3.981071705534979e+000	1.000000e-001	3.981072e+000	3.981072e+001
6.309573444801944e+000	1.000000e-001	6.309574e+000	6.309574e+001
1.000000000000000e+001	1.000000e-001	1.000000e+001	1.000000e+002
Step Information: I_rs=316.228m Elec=100m Rho=100m  (Run: 6/81)
1.000000000000000e-003	3.162278e-001	1.000000e-003	3.162278e-003
1.584893192461114e-003	3.162278e-001	1.584893e-003	5.011873e-003
2.511886431509581e-003	3.162278e-001	2.511886e-003	7.943282e-003
3.981071705534973e-003	3.162278e-001	3.981072e-003	1.258926e-002
6.309573444801935e-003	3.162278e-001	6.309574e-003	1.995262e-002
1.000000000000000e-002	3.162278e-001	1.000000e-002	3.162278e-002
1.584893192461114e-002	3.162278e-001	1.584893e-002	5.011873e-002
2.511886431509581e-002	3.162278e-001	2.511887e-002	7.943283e-002
3.981071705534975e-002	3.162278e-001	3.981072e-002	1.258925e-001
6.309573444801937e-002	3.162278e-001	6.309573e-002	1.995262e-001
1.000000000000001e-001	3.162278e-001	1.000000e-001	3.162278e-001
1.584893192461115e-001	3.162278e-001	1.584893e-001	5.011872e-001
2.511886431509583e-001	3.162278e-001	2.511886e-001	7.943282e-001
3.981071705534977e-001	3.162278e-001	3.981072e-001	1.258925e+000
6.309573444801940e-001	3.162278e-001	6.309574e-001	1.995262e+000
1.000000000000001e+000	3.162278e-001	1.000000e+000	3.162278e+000
1.584893192461116e+000	3.162278e-001	1.584893e+000	5.011872e+000
2.511886431509584e+000	3.162278e-001	2.511886e+000	7.943282e+000
3.981071705534979e+000	3.162278e-001	3.981072e+000	1.258925e+001
6.309573444801944e+000	3.162278e-001	6.309574e+000	1.995262e+001
1.000000000000000e+001	3.162278e-001	1.000000e+001	3.162278e+001
Step Information: I_rs=1 Elec=100m Rho=100m  (Run: 7/81)
1.000000000000000e-003	1.000000e+000	1.000005e-003	1.000005e-003
1.584893192461114e-003	1.000000e+000	1.584898e-003	1.584898e-003
2.511886431509581e-003	1.000000e+000	2.511892e-003	2.511892e-003
3.981071705534973e-003	1.000000e+000	3.981077e-003	3.981077e-003
6.309573444801935e-003	1.000000e+000	6.309578e-003	6.309578e-003
1.000000000000000e-002	1.000000e+000	1.000000e-002	1.000000e-002
1.584893192461114e-002	1.000000e+000	1.584894e-002	1.584894e-002
2.511886431509581e-002	1.000000e+000	2.511887e-002	2.511887e-002
3.981071705534975e-002	1.000000e+000	3.981072e-002	3.981072e-002
6.309573444801937e-002	1.000000e+000	6.309574e-002	6.309574e-002
1.000000000000001e-001	1.000000e+000	1.000000e-001	1.000000e-001
1.584893192461115e-001	1.000000e+000	1.584893e-001	1.584893e-001
2.511886431509583e-001	1.000000e+000	2.511886e-001	2.511886e-001
3.981071705534977e-001	1.000000e+000	3.981072e-001	3.981072e-001
6.309573444801940e-001	1.000000e+000	6.309574e-001	6.309574e-001
1.000000000000001e+000	1.000000e+000	1.000000e+000	1.000000e+000
1.584893192461116e+000	1.000000e+000	1.584893e+000	1.584893e+000
2.511886431509584e+000	1.000000e+000	2.511886e+000	2.511886e+000
3.981071705534979e+000	1.000000e+000	3.981072e+000	3.981072e+000
6.309573444801944e+000	1.000000e+000	6.309574e+000	6.309574e+000
1.000000000000000e+001	1.000000e+000	1.000000e+001	1.000000e+001
Step Information: I_rs=3.16228 Elec=100m Rho=100m  (Run: 8/81)
1.000000000000000e-003	3.161128e+000	2.149340e-003	6.799282e-004
1.584893192461114e-003	3.161132e+000	2.730447e-003	8.637560e-004
2.511886431509581e-003	3.161138e+000	3.651477e-003	1.155115e-003
3.981071705534973e-003	3.161147e+000	5.111265e-003	1.616902e-003
6.309573444801935e-003	3.161162e+000	7.425026e-003	2.348828e-003
1.000000000000000e-002	3.161185e+000	1.109247e-002	3.508959e-003
1.584893192461114e-002	3.161221e+000	1.690592e-002	5.347908e-003
2.511886431509581e-002	3.161275e+000	2.612188e-002	8.263086e-003
3.981071705534975e-002	3.161355e+000	4.073364e-002	1.288487e-002
6.309573444801937e-002	3.161469e+000	6.390426e-002	2.021347e-002
1.000000000000001e-001	3.161623e+000	1.006549e-001	3.183645e-002
1.584893192461115e-001	3.161810e+000	1.589569e-001	5.027404e-002
2.511886431509583e-001	3.162005e+000	2.514610e-001	7.952580e-002
3.981071705534977e-001	3.162164e+000	3.982206e-001	1.259329e-001
6.309573444801940e-001	3.162251e+000	6.309839e-001	1.995363e-001
1.000000000000001e+000	3.162276e+000	1.000002e+000	3.162286e-001
1.584893192461116e+000	3.162278e+000	1.584893e+000	5.011872e-001
2.511886431509584e+000	3.162278e+000	2.511886e+000	7.943282e-001
3.981071705534979e+000	3.162278e+000	3.981072e+000	1.258925e+000
6.309573444801944e+000	3.162278e+000	6.309574e+000	1.995262e+000
1.000000000000000e+001	3.162278e+000	1.000000e+001	3.162278e+000
Step Information: I_rs=10 Elec=100m Rho=100m  (Run: 9/81)
1.000000000000000e-003	7.261229e+000	2.739771e+000	3.773151e-001
1.584893192461114e-003	7.261512e+000	2.740072e+000	3.773419e-001
2.511886431509581e-003	7.261961e+000	2.740551e+000	3.773843e-001
3.981071705534973e-003	7.262673e+000	2.741308e+000	3.774516e-001
6.309573444801935e-003	7.263802e+000	2.742508e+000	3.775582e-001
1.000000000000000e-002	7.265589e+000	2.744411e+000	3.777272e-001
1.584893192461114e-002	7.268423e+000	2.747426e+000	3.779948e-001
2.511886431509581e-002	7.272914e+000	2.752205e+000	3.784185e-001
3.981071705534975e-002	7.280031e+000	2.759780e+000	3.790890e-001
6.309573444801937e-002	7.291309e+000	2.771786e+000	3.801493e-001
1.000000000000001e-001	7.309182e+000	2.790818e+000	3.818236e-001
1.584893192461115e-001	7.337500e+000	2.820989e+000	3.844619e-001
2.511886431509583e-001	7.382362e+000	2.868827e+000	3.886055e-001
3.981071705534977e-001	7.453413e+000	2.944694e+000	3.950799e-001
6.309573444801940e-001	7.565890e+000	3.065067e+000	4.051166e-001
1.000000000000001e+000	7.743790e+000	3.256210e+000	4.204930e-001
1.584893192461116e+000	8.024691e+000	3.560202e+000	4.436560e-001
2.511886431509584e+000	8.466500e+000	4.045386e+000	4.778109e-001
3.981071705534979e+000	9.148978e+000	4.832094e+000	5.281567e-001
6.309573444801944e+000	9.980844e+000	6.328730e+000	6.340877e-001
1.000000000000000e+001	1.000689e+001	9.993108e+000	9.986225e-001
Step Information: I_rs=1m Elec=1 Rho=100m  (Run: 10/81)
1.000000000000000e-003	1.000000e-003	1.000000e-003	1.000000e+000
1.584893192461114e-003	1.000000e-003	1.584893e-003	1.584893e+000
2.511886431509581e-003	1.000000e-003	2.511886e-003	2.511886e+000
3.981071705534973e-003	1.000000e-003	3.981072e-003	3.981071e+000
6.309573444801935e-003	1.000000e-003	6.309574e-003	6.309573e+000
1.000000000000000e-002	1.000000e-003	1.000000e-002	9.999999e+000
1.584893192461114e-002	1.000000e-003	1.584893e-002	1.584893e+001
2.511886431509581e-002	1.000000e-003	2.511887e-002	2.511886e+001
3.981071705534975e-002	1.000000e-003	3.981072e-002	3.981072e+001
6.309573444801937e-002	1.000000e-003	6.309573e-002	6.309573e+001
1.000000000000001e-001	1.000000e-003	1.000000e-001	1.000000e+002
1.584893192461115e-001	1.000000e-003	1.584893e-001	1.584893e+002
2.511886431509583e-001	1.000000e-003	2.511886e-001	2.511886e+002
3.981071705534977e-001	1.000000e-003	3.981072e-001	3.981072e+002
6.309573444801940e-001	1.000000e-003	6.309574e-001	6.309573e+002
1.000000000000001e+000	1.000000e-003	1.000000e+000	1.000000e+003
1.584893192461116e+000	1.000000e-003	1.584893e+000	1.584893e+003
2.511886431509584e+000	1.000000e-003	2.511886e+000	2.511886e+003
3.981071705534979e+000	1.000000e-003	3.981072e+000	3.981072e+003
6.309573444801944e+000	1.000000e-003	6.309574e+000	6.309573e+003
1.000000000000000e+001	1.000000e-003	1.000000e+001	1.000000e+004
Step Information: I_rs=3.16228m Elec=1 Rho=100m  (Run: 11/81)
1.000000000000000e-003	3.162278e-003	1.000000e-003	3.162278e-001
1.584893192461114e-003	3.162278e-003	1.584893e-003	5.011872e-001
2.511886431509581e-003	3.162278e-003	2.511886e-003	7.943282e-001
3.981071705534973e-003	3.162278e-003	3.981072e-003	1.258925e+000
6.309573444801935e-003	3.162278e-003	6.309574e-003	1.995262e+000
1.000000000000000e-002	3.162278e-003	1.000000e-002	3.162278e+000
1.584893192461114e-002	3.162278e-003	1.584893e-002	5.011873e+000
2.511886431509581e-002	3.162278e-003	2.511887e-002	7.943283e+000
3.981071705534975e-002	3.162278e-003	3.981072e-002	1.258925e+001
6.309573444801937e-002	3.162278e-003	6.309573e-002	1.995262e+001
1.000000000000001e-001	3.162278e-003	1.000000e-001	3.162278e+001
1.584893192461115e-001	3.162278e-003	1.584893e-001	5.011872e+001
2.511886431509583e-001	3.162278e-003	2.511886e-001	7.943282e+001
3.981071705534977e-001	3.162278e-003	3.981072e-001	1.258925e+002
6.309573444801940e-001	3.162278e-003	6.309574e-001	1.995262e+002
1.000000000000001e+000	3.162278e-003	1.000000e+000	3.162278e+002
1.584893192461116e+000	3.162278e-003	1.584893e+000	5.011872e+002
2.511886431509584e+000	3.162278e-003	2.511886e+000	7.943282e+002
3.981071705534979e+000	3.162278e-003	3.981072e+000	1.258925e+003
6.309573444801944e+000	3.162278e-003	6.309574e+000	1.995262e+003
1.000000000000000e+001	3.162278e-003	1.000000e+001	3.162278e+003
Step Information: I_rs=10m Elec=1 Rho=100m  (Run: 12/81)
1.000000000000000e-003	1.000000e-002	1.000000e-003	1.000000e-001
1.584893192461114e-003	1.000000e-002	1.584893e-003	1.584893e-001
2.511886431509581e-003	1.000000e-002	2.511886e-003	2.511886e-001
3.981071705534973e-003	1.000000e-002	3.981072e-003	3.981072e-001
6.309573444801935e-003	1.000000e-002	6.309574e-003	6.309574e-001
1.000000000000000e-002	1.000000e-002	1.000000e-002	1.000000e+000
1.584893192461114e-002	1.000000e-002	1.584893e-002	1.584893e+000
2.511886431509581e-002	1.000000e-002	2.511887e-002	2.511887e+000
3.981071705534975e-002	1.000000e-002	3.981072e-002	3.981072e+000
6.309573444801937e-002	1.000000e-002	6.309573e-002	6.309573e+000
1.000000000000001e-001	1.000000e-002	1.000000e-001	1.000000e+001
1.584893192461115e-001	1.000000e-002	1.584893e-001	1.584893e+001
2.511886431509583e-001	1.000000e-002	2.511886e-001	2.511886e+001
3.981071705534977e-001	1.000000e-002	3.981072e-001	3.981072e+001
6.309573444801940e-001	1.000000e-002	6.309574e-001	6.309574e+001
1.000000000000001e+000	1.000000e-002	1.000000e+000	1.000000e+002
1.584893192461116e+000	1.000000e-002	1.584893e+000	1.584893e+002
2.511886431509584e+000	1.000000e-002	2.511886e+000	2.511886e+002
3.981071705534979e+000	1.000000e-002	3.981072e+000	3.981072e+002
6.309573444801944e+000	1.000000e-002	6.309574e+000	6.309574e+002
1.000000000000000e+001	1.000000e-002	1.000000e+001	1.000000e+003
Step Information: I_rs=31.6228m Elec=1 Rho=100m  (Run: 13/81)
1.000000000000000e-003	3.162277e-002	1.000000e-003	3.162278e-002
1.584893192461114e-003	3.162277e-002	1.584893e-003	5.011873e-002
2.511886431509581e-003	3.162277e-002	2.511886e-003	7.943283e-002
3.981071705534973e-003	3.162277e-002	3.981072e-003	1.258925e-001
6.309573444801935e-003	3.162277e-002	6.309574e-003	1.995262e-001
1.000000000000000e-002	3.162277e-002	1.000000e-002	3.162278e-001
1.584893192461114e-002	3.162277e-002	1.584893e-002	5.011873e-001
2.511886431509581e-002	3.162277e-002	2.511887e-002	7.943283e-001
3.981071705534975e-002	3.162277e-002	3.981072e-002	1.258925e+000
6.309573444801937e-002	3.162277e-002	6.309573e-002	1.995262e+000
1.000000000000001e-001	3.162277e-002	1.000000e-001	3.162278e+000
1.584893192461115e-001	3.162277e-002	1.584893e-001	5.011873e+000
2.511886431509583e-001	3.162277e-002	2.511886e-001	7.943283e+000
3.981071705534977e-001	3.162277e-002	3.981072e-001	1.258925e+001
6.309573444801940e-001	3.162277e-002	6.309574e-001	1.995262e+001
1.000000000000001e+000	3.162277e-002	1.000000e+000	3.162278e+001
1.584893192461116e+000	3.162277e-002	1.584893e+000	5.011873e+001
2.511886431509584e+000	3.162277e-002	2.511886e+000	7.943283e+001
3.981071705534979e+000	3.162277e-002	3.981072e+000	1.258925e+002
6.309573444801944e+000	3.162277e-002	6.309574e+000	1.995262e+002
1.000000000000000e+001	3.162277e-002	1.000000e+001	3.162278e+002
Step Information: I_rs=100m Elec=1 Rho=100m  (Run: 14/81)
1.000000000000000e-003	1.000000e-001	1.000000e-003	1.000000e-002
1.584893192461114e-003	1.000000e-001	1.584893e-003	1.584893e-002
2.511886431509581e-003	1.000000e-001	2.511886e-003	2.511886e-002
3.981071705534973e-003	1.000000e-001	3.981072e-003	3.981072e-002
6.309573444801935e-003	1.000000e-001	6.309574e-003	6.309573e-002
1.000000000000000e-002	1.000000e-001	1.000000e-002	1.000000e-001
1.584893192461114e-002	1.000000e-001	1.584893e-002	1.584893e-001
2.511886431509581e-002	1.000000e-001	2.511887e-002	2.511886e-001
3.981071705534975e-002	1.000000e-001	3.981072e-002	3.981072e-001
6.309573444801937e-002	1.000000e-001	6.309573e-002	6.309573e-001
1.000000000000001e-001	1.000000e-001	1.000000e-001	1.000000e+000
1.584893192461115e-001	1.000000e-001	1.584893e-001	1.584893e+000
2.511886431509583e-001	1.000000e-001	2.511886e-001	2.511886e+000
3.981071705534977e-001	1.000000e-001	3.981072e-001	3.981072e+000
6.309573444801940e-001	1.000000e-001	6.309574e-001	6.309574e+000
1.000000000000001e+000	1.000000e-001	1.000000e+000	1.000000e+001
1.584893192461116e+000	1.000000e-001	1.584893e+000	1.584893e+001
2.511886431509584e+000	1.000000e-001	2.511886e+000	2.511886e+001
3.981071705534979e+000	1.000000e-001	3.981072e+000	3.981072e+001
6.309573444801944e+000	1.000000e-001	6.309574e+000	6.309574e+001
1.000000000000000e+001	1.000000e-001	1.000000e+001	1.000000e+002
